
T0770 000:065 SEGGER J-Link V6.14b Log File (0000ms, 0030ms total)
T0770 000:065 DLL Compiled: Mar  9 2017 08:46:04 (0000ms, 0030ms total)
T0770 000:065 Logging started @ 2017-04-05 18:47 (0000ms, 0030ms total)
T0770 000:065 JLINK_SetWarnOutHandler(...) (0000ms, 0030ms total)
T0770 000:065 JLINK_OpenEx(...)
Firmware: J-Link ARM V8 compiled Nov 28 2014 13:44:46
Hardware: V8.00
S/N: 17935099
Feature(s): RDI,FlashDL,FlashBP,JFlashWEBSRV Webserver running on local port 19080 (0017ms, 0047ms total)
T0770 000:065   returns O.K. (0017ms, 0047ms total)
T0770 000:082 JLINK_SetErrorOutHandler(...) (0000ms, 0047ms total)
T0770 000:082 JLINK_ExecCommand("ProjectFile = "F:\Documents\Github\Test_Prj\Test\JLinkSettings.ini"", ...). C:\Program Files (x86)\SEGGER\JLink_V614b\JLinkDevices.xml evaluated successfully.  returns 0x00 (0093ms, 0140ms total)
T0770 000:180 JLINK_ExecCommand("Device = STM32F407VETx", ...). Device "STM32F407VE" selected.  returns 0x00 (0004ms, 0145ms total)
T0770 000:185 JLINK_ExecCommand("DisableConnectionTimeout", ...).   returns 0x01 (0000ms, 0145ms total)
T0770 000:185 JLINK_GetHardwareVersion()  returns 0x13880 (0000ms, 0145ms total)
T0770 000:185 JLINK_GetDLLVersion()  returns 61402 (0001ms, 0146ms total)
T0770 000:186 JLINK_GetFirmwareString(...) (0000ms, 0146ms total)
T0770 000:199 JLINK_GetDLLVersion()  returns 61402 (0000ms, 0146ms total)
T0770 000:199 JLINK_GetCompileDateTime() (0000ms, 0146ms total)
T0770 000:202 JLINK_GetFirmwareString(...) (0000ms, 0146ms total)
T0770 000:206 JLINK_GetHardwareVersion()  returns 0x13880 (0000ms, 0146ms total)
T0770 000:231 JLINK_TIF_Select(JLINKARM_TIF_SWD)  returns 0x00 (0001ms, 0147ms total)
T0770 000:232 JLINK_SetSpeed(5000) (0000ms, 0147ms total)
T0770 000:232 JLINK_GetId() >0x108 TIF>Found SWD-DP with ID 0x2BA01477 >0x0D TIF> >0x28 TIF> >0x0D TIF> >0x28 TIF> >0x0D TIF> >0x28 TIF> >0x0D TIF> >0x28 TIF> >0x0D TIF> >0x21 TIF> >0x0D TIF> >0x28 TIF> >0x0D TIF> >0x28 TIF> >0x0D TIF> >0x28 TIF> >0x0D TIF> >0x21 TIF> >0x0D TIF> >0x21 TIF> >0x0D TIF> >0x28 TIF> >0x0D TIF> >0x21 TIF> >0x0D TIF> >0x21 TIF> >0x0D TIF> >0x28 TIF> >0x0D TIF> >0x28 TIF> >0x0D TIF> >0x28 TIF> >0x0D TIF> >0x21 TIF> >0x0D TIF> >0x21 TIF> >0x0D TIF> >0x28 TIF> >0x0D TIF>
 >0x28 TIF> >0x0D TIF> >0x28 TIF> >0x0D TIF> >0x21 TIF> >0x0D TIF> >0x21 TIF> >0x0D TIF> >0x28 TIF> >0x0D TIF> >0x21 TIF> >0x0D TIF> >0x21 TIF> >0x0D TIF> >0x28 TIF> >0x0D TIF> >0x21 TIF> >0x0D TIF> >0x21 TIF> >0x108 TIF>Found SWD-DP with ID 0x2BA01477 >0x0D TIF> >0x28 TIF> >0x0D TIF> >0x28 TIF> >0x0D TIF> >0x28 TIF> >0x0D TIF> >0x28 TIF> >0x0D TIF> >0x21 TIF> >0x0D TIF> >0x28 TIF> >0x0D TIF> >0x28 TIF> >0x0D TIF> >0x21 TIF> >0x0D TIF> >0x21 TIF> >0x0D TIF> >0x21 TIF>AP-IDR: 0x24770011, Type: AHB-AP
AHB-AP ROM: 0xE00FF000 (Base addr. of first ROM table) >0x0D TIF> >0x28 TIF> >0x0D TIF> >0x28 TIF> >0x0D TIF> >0x28 TIF> >0x0D TIF> >0x21 TIF> >0x0D TIF> >0x21 TIF> >0x0D TIF> >0x28 TIF> >0x0D TIF> >0x21 TIF> >0x0D TIF> >0x21 TIF>Found Cortex-M4 r0p1, Little endian. -- CPU_ReadMem(4 bytes @ 0xE000EDF0) -- CPU_WriteMem(4 bytes @ 0xE000EDF0) -- CPU_ReadMem(4 bytes @ 0xE0002000)FPUnit: 6 code (BP) slots and 2 literal slots -- CPU_ReadMem(4 bytes @ 0xE000EDFC) -- CPU_WriteMem(4 bytes @ 0xE000EDFC)
 -- CPU_ReadMem(4 bytes @ 0xE0001000) -- CPU_WriteMem(4 bytes @ 0xE0001000) -- CPU_ReadMem(4 bytes @ 0xE000ED88) -- CPU_WriteMem(4 bytes @ 0xE000ED88) -- CPU_ReadMem(4 bytes @ 0xE000ED88) -- CPU_WriteMem(4 bytes @ 0xE000ED88)CoreSight components:ROMTbl 0 @ E00FF000 -- CPU_ReadMem(16 bytes @ 0xE00FF000) -- CPU_ReadMem(16 bytes @ 0xE000EFF0) -- CPU_ReadMem(16 bytes @ 0xE000EFE0)ROMTbl 0 [0]: FFF0F000, CID: B105E00D, PID: 000BB00C SCS -- CPU_ReadMem(16 bytes @ 0xE0001FF0)
 -- CPU_ReadMem(16 bytes @ 0xE0001FE0)ROMTbl 0 [1]: FFF02000, CID: B105E00D, PID: 003BB002 DWT -- CPU_ReadMem(16 bytes @ 0xE0002FF0) -- CPU_ReadMem(16 bytes @ 0xE0002FE0)ROMTbl 0 [2]: FFF03000, CID: B105E00D, PID: 002BB003 FPB -- CPU_ReadMem(16 bytes @ 0xE0000FF0) -- CPU_ReadMem(16 bytes @ 0xE0000FE0)ROMTbl 0 [3]: FFF01000, CID: B105E00D, PID: 003BB001 ITM -- CPU_ReadMem(16 bytes @ 0xE00FF010) -- CPU_ReadMem(16 bytes @ 0xE0040FF0) -- CPU_ReadMem(16 bytes @ 0xE0040FE0)
ROMTbl 0 [4]: FFF41000, CID: B105900D, PID: 000BB9A1 TPIU -- CPU_ReadMem(16 bytes @ 0xE0041FF0) -- CPU_ReadMem(16 bytes @ 0xE0041FE0)ROMTbl 0 [5]: FFF42000, CID: B105900D, PID: 000BB925 ETM >0x0D TIF> >0x21 TIF>  returns 0x2BA01477 (0134ms, 0281ms total)
T0770 000:366 JLINK_GetDLLVersion()  returns 61402 (0000ms, 0281ms total)
T0770 000:366 JLINK_CORE_GetFound()  returns 0xE0000FF (0000ms, 0281ms total)
T0770 000:366 JLINK_GetDebugInfo(0x100 = JLINKARM_ROM_TABLE_ADDR_INDEX) -- Value=0xE00FF000  returns 0x00 (0000ms, 0281ms total)
T0770 000:369 JLINK_GetDebugInfo(0x100 = JLINKARM_ROM_TABLE_ADDR_INDEX) -- Value=0xE00FF000  returns 0x00 (0000ms, 0281ms total)
T0770 000:369 JLINK_GetDebugInfo(0x101 = JLINKARM_DEBUG_INFO_ETM_ADDR_INDEX) -- Value=0xE0041000  returns 0x00 (0000ms, 0281ms total)
T0770 000:369 JLINK_GetDebugInfo(0x102 = JLINKARM_DEBUG_INFO_MTB_ADDR_INDEX) -- Value=0x00000000  returns 0x00 (0000ms, 0281ms total)
T0770 000:369 JLINK_GetDebugInfo(0x103 = JLINKARM_DEBUG_INFO_TPIU_ADDR_INDEX) -- Value=0xE0040000  returns 0x00 (0000ms, 0281ms total)
T0770 000:369 JLINK_GetDebugInfo(0x104 = JLINKARM_DEBUG_INFO_ITM_ADDR_INDEX) -- Value=0xE0000000  returns 0x00 (0001ms, 0282ms total)
T0770 000:370 JLINK_GetDebugInfo(0x105 = JLINKARM_DEBUG_INFO_DWT_ADDR_INDEX) -- Value=0xE0001000  returns 0x00 (0000ms, 0282ms total)
T0770 000:370 JLINK_GetDebugInfo(0x106 = JLINKARM_DEBUG_INFO_FPB_ADDR_INDEX) -- Value=0xE0002000  returns 0x00 (0000ms, 0282ms total)
T0770 000:370 JLINK_GetDebugInfo(0x107 = JLINKARM_DEBUG_INFO_NVIC_ADDR_INDEX) -- Value=0xE000E000  returns 0x00 (0000ms, 0282ms total)
T0770 000:370 JLINK_GetDebugInfo(0x10C = JLINKARM_DEBUG_INFO_DBG_ADDR_INDEX) -- Value=0xE000EDF0  returns 0x00 (0000ms, 0282ms total)
T0770 000:370 JLINK_ReadMemU32(0xE000EF40, 0x0001 Items, ...) -- CPU is running -- CPU_ReadMem(4 bytes @ 0xE000EF40) - Data: 21 00 11 10  returns 0x01 (0000ms, 0282ms total)
T0770 000:370 JLINK_ReadMemU32(0xE000EF44, 0x0001 Items, ...) -- CPU is running -- CPU_ReadMem(4 bytes @ 0xE000EF44) - Data: 11 00 00 11  returns 0x01 (0000ms, 0282ms total)
T0770 000:370 JLINK_ReadMemU32(0xE000ED00, 0x0001 Items, ...) -- CPU is running -- CPU_ReadMem(4 bytes @ 0xE000ED00) - Data: 41 C2 0F 41  returns 0x01 (0001ms, 0283ms total)
T0770 000:371 JLINK_SetResetType(JLINKARM_CM3_RESET_TYPE_NORMAL)  returns JLINKARM_CM3_RESET_TYPE_NORMAL (0000ms, 0283ms total)
T0770 000:371 JLINK_Reset() -- CPU is running -- CPU_WriteMem(4 bytes @ 0xE000EDF0) -- CPU is running -- CPU_WriteMem(4 bytes @ 0xE000EDFC) >0x35 TIF> -- CPU is running -- CPU_WriteMem(4 bytes @ 0xE000ED0C) >0x0D TIF> >0x28 TIF> -- CPU is running -- CPU_ReadMem(4 bytes @ 0xE000EDF0) -- CPU is running -- CPU_ReadMem(4 bytes @ 0xE000EDF0) -- CPU is running -- CPU_WriteMem(4 bytes @ 0xE000EDF0) -- CPU is running -- CPU_WriteMem(4 bytes @ 0xE000EDFC) -- CPU is running -- CPU_ReadMem(4 bytes @ 0xE000EDF0)
 -- CPU_WriteMem(4 bytes @ 0xE0002000) -- CPU_ReadMem(4 bytes @ 0xE000EDFC) -- CPU_ReadMem(4 bytes @ 0xE0001000) (0065ms, 0348ms total)
T0770 000:436 JLINK_Halt()  returns 0x00 (0000ms, 0348ms total)
T0770 000:436 JLINK_IsHalted()  returns TRUE (0000ms, 0348ms total)
T0770 000:437 JLINK_ReadMemU32(0xE000EDF0, 0x0001 Items, ...) -- CPU_ReadMem(4 bytes @ 0xE000EDF0) - Data: 03 00 03 00  returns 0x01 (0000ms, 0348ms total)
T0770 000:437 JLINK_WriteU32(0xE000EDF0, 0xA05F0003) -- CPU_WriteMem(4 bytes @ 0xE000EDF0)  returns 0x00 (0000ms, 0348ms total)
T0770 000:437 JLINK_WriteU32(0xE000EDFC, 0x01000000) -- CPU_WriteMem(4 bytes @ 0xE000EDFC)  returns 0x00 (0001ms, 0349ms total)
T0770 000:488 JLINK_GetHWStatus(...)  returns 0x00 (0000ms, 0349ms total)
T0770 000:526 JLINK_GetNumBPUnits(Type = 0xFFFFFF00)  returns 0x06 (0000ms, 0349ms total)
T0770 000:526 JLINK_GetNumBPUnits(Type = 0xF0)  returns 0x2000 (0000ms, 0349ms total)
T0770 000:526 JLINK_GetNumWPUnits()  returns 0x04 (0000ms, 0349ms total)
T0770 000:552 JLINK_GetSpeed()  returns 0xFA0 (0000ms, 0349ms total)
T0770 000:566 JLINK_ReadMemU32(0xE000E004, 0x0001 Items, ...) -- CPU_ReadMem(4 bytes @ 0xE000E004) - Data: 02 00 00 00  returns 0x01 (0000ms, 0349ms total)
T0770 000:566 JLINK_ReadMemU32(0xE000E004, 0x0001 Items, ...) -- CPU_ReadMem(4 bytes @ 0xE000E004) - Data: 02 00 00 00  returns 0x01 (0001ms, 0350ms total)
T0770 000:567 JLINK_WriteMem(0xE0001000, 0x001C Bytes, ...) - Data: 01 00 00 00 00 00 00 00 00 00 00 00 00 00 00 00 ... -- CPU_WriteMem(28 bytes @ 0xE0001000)  returns 0x1C (0001ms, 0351ms total)
T0770 000:568 JLINK_ReadMem (0xE0001000, 0x001C Bytes, ...) -- CPU_ReadMem(28 bytes @ 0xE0001000) - Data: 01 00 00 40 00 00 00 00 00 00 00 00 00 00 00 00 ...  returns 0x00 (0000ms, 0351ms total)
T0770 000:568 JLINK_Halt()  returns 0x00 (0000ms, 0351ms total)
T0770 000:568 JLINK_IsHalted()  returns TRUE (0000ms, 0351ms total)
T0770 000:572 JLINK_WriteMem(0x20000000, 0x0188 Bytes, ...) - Data: 00 BE 0A E0 0D 78 2D 06 68 40 08 24 40 00 00 D3 ... -- CPU_WriteMem(392 bytes @ 0x20000000)  returns 0x188 (0003ms, 0354ms total)
T0770 000:575 JLINK_WriteReg(R0, 0x08000000)  returns 0x00 (0000ms, 0354ms total)
T0770 000:575 JLINK_WriteReg(R1, 0x00B71B00)  returns 0x00 (0000ms, 0354ms total)
T0770 000:575 JLINK_WriteReg(R2, 0x00000001)  returns 0x00 (0000ms, 0354ms total)
T0770 000:575 JLINK_WriteReg(R3, 0x00000000)  returns 0x00 (0000ms, 0354ms total)
T0770 000:575 JLINK_WriteReg(R4, 0x00000000)  returns 0x00 (0000ms, 0354ms total)
T0770 000:575 JLINK_WriteReg(R5, 0x00000000)  returns 0x00 (0000ms, 0354ms total)
T0770 000:575 JLINK_WriteReg(R6, 0x00000000)  returns 0x00 (0000ms, 0354ms total)
T0770 000:575 JLINK_WriteReg(R7, 0x00000000)  returns 0x00 (0000ms, 0354ms total)
T0770 000:575 JLINK_WriteReg(R8, 0x00000000)  returns 0x00 (0000ms, 0354ms total)
T0770 000:575 JLINK_WriteReg(R9, 0x20000184)  returns 0x00 (0000ms, 0354ms total)
T0770 000:575 JLINK_WriteReg(R10, 0x00000000)  returns 0x00 (0000ms, 0354ms total)
T0770 000:575 JLINK_WriteReg(R11, 0x00000000)  returns 0x00 (0000ms, 0354ms total)
T0770 000:575 JLINK_WriteReg(R12, 0x00000000)  returns 0x00 (0000ms, 0354ms total)
T0770 000:575 JLINK_WriteReg(R13 (SP), 0x20001000)  returns 0x00 (0000ms, 0354ms total)
T0770 000:575 JLINK_WriteReg(R14, 0x20000001)  returns 0x00 (0000ms, 0354ms total)
T0770 000:575 JLINK_WriteReg(R15 (PC), 0x2000005E)  returns 0x00 (0000ms, 0354ms total)
T0770 000:575 JLINK_WriteReg(XPSR, 0x01000000)  returns 0x00 (0000ms, 0354ms total)
T0770 000:575 JLINK_WriteReg(MSP, 0x20001000)  returns 0x00 (0000ms, 0354ms total)
T0770 000:575 JLINK_WriteReg(PSP, 0x20001000)  returns 0x00 (0000ms, 0354ms total)
T0770 000:575 JLINK_WriteReg(CFBP, 0x00000000)  returns 0x00 (0000ms, 0354ms total)
T0770 000:575 JLINK_SetBPEx(Addr = 0x20000000, Type = 0xFFFFFFF2) -- CPU_ReadMem(2 bytes @ 0x20000000)  returns 0x00000001 (0001ms, 0355ms total)
T0770 000:576 JLINK_Go() -- CPU_WriteMem(2 bytes @ 0x20000000) -- CPU_ReadMem(4 bytes @ 0xE0001000) -- CPU_WriteMem(4 bytes @ 0xE0002008) -- CPU_WriteMem(4 bytes @ 0xE000200C) -- CPU_WriteMem(4 bytes @ 0xE0002010) -- CPU_WriteMem(4 bytes @ 0xE0002014) -- CPU_WriteMem(4 bytes @ 0xE0002018) -- CPU_WriteMem(4 bytes @ 0xE000201C) -- CPU_WriteMem(4 bytes @ 0xE0001004) (0004ms, 0359ms total)
T0770 000:580 JLINK_IsHalted() -- CPU_ReadMem(2 bytes @ 0x20000000)  returns TRUE (0003ms, 0362ms total)
T0770 000:583 JLINK_ReadReg(R15 (PC))  returns 0x20000000 (0000ms, 0359ms total)
T0770 000:583 JLINK_ClrBPEx(BPHandle = 0x00000001)  returns 0x00 (0000ms, 0359ms total)
T0770 000:583 JLINK_ReadReg(R0)  returns 0x00000000 (0000ms, 0359ms total)
T0770 000:584 JLINK_WriteReg(R0, 0x08000000)  returns 0x00 (0000ms, 0359ms total)
T0770 000:584 JLINK_WriteReg(R1, 0x00004000)  returns 0x00 (0000ms, 0359ms total)
T0770 000:584 JLINK_WriteReg(R2, 0x000000FF)  returns 0x00 (0000ms, 0359ms total)
T0770 000:584 JLINK_WriteReg(R3, 0x00000000)  returns 0x00 (0000ms, 0359ms total)
T0770 000:584 JLINK_WriteReg(R4, 0x00000000)  returns 0x00 (0000ms, 0359ms total)
T0770 000:584 JLINK_WriteReg(R5, 0x00000000)  returns 0x00 (0000ms, 0359ms total)
T0770 000:584 JLINK_WriteReg(R6, 0x00000000)  returns 0x00 (0000ms, 0359ms total)
T0770 000:584 JLINK_WriteReg(R7, 0x00000000)  returns 0x00 (0000ms, 0359ms total)
T0770 000:584 JLINK_WriteReg(R8, 0x00000000)  returns 0x00 (0000ms, 0359ms total)
T0770 000:584 JLINK_WriteReg(R9, 0x20000184)  returns 0x00 (0000ms, 0359ms total)
T0770 000:584 JLINK_WriteReg(R10, 0x00000000)  returns 0x00 (0000ms, 0359ms total)
T0770 000:584 JLINK_WriteReg(R11, 0x00000000)  returns 0x00 (0000ms, 0359ms total)
T0770 000:584 JLINK_WriteReg(R12, 0x00000000)  returns 0x00 (0000ms, 0359ms total)
T0770 000:584 JLINK_WriteReg(R13 (SP), 0x20001000)  returns 0x00 (0000ms, 0359ms total)
T0770 000:584 JLINK_WriteReg(R14, 0x20000001)  returns 0x00 (0000ms, 0359ms total)
T0770 000:584 JLINK_WriteReg(R15 (PC), 0x20000020)  returns 0x00 (0000ms, 0359ms total)
T0770 000:584 JLINK_WriteReg(XPSR, 0x01000000)  returns 0x00 (0000ms, 0359ms total)
T0770 000:584 JLINK_WriteReg(MSP, 0x20001000)  returns 0x00 (0000ms, 0359ms total)
T0770 000:584 JLINK_WriteReg(PSP, 0x20001000)  returns 0x00 (0000ms, 0359ms total)
T0770 000:584 JLINK_WriteReg(CFBP, 0x00000000)  returns 0x00 (0000ms, 0359ms total)
T0770 000:584 JLINK_SetBPEx(Addr = 0x20000000, Type = 0xFFFFFFF2)  returns 0x00000002 (0000ms, 0359ms total)
T0770 000:584 JLINK_Go() -- CPU_ReadMem(4 bytes @ 0xE0001000) (0001ms, 0360ms total)
T0770 000:585 JLINK_IsHalted() -- CPU_ReadMem(2 bytes @ 0x20000000)  returns TRUE (0003ms, 0363ms total)
T0770 000:588 JLINK_ReadReg(R15 (PC))  returns 0x20000000 (0000ms, 0360ms total)
T0770 000:588 JLINK_ClrBPEx(BPHandle = 0x00000002)  returns 0x00 (0000ms, 0360ms total)
T0770 000:588 JLINK_ReadReg(R0)  returns 0x00000001 (0000ms, 0360ms total)
T0770 000:588 JLINK_WriteReg(R0, 0x08000000)  returns 0x00 (0000ms, 0360ms total)
T0770 000:588 JLINK_WriteReg(R1, 0x00004000)  returns 0x00 (0000ms, 0360ms total)
T0770 000:588 JLINK_WriteReg(R2, 0x000000FF)  returns 0x00 (0000ms, 0360ms total)
T0770 000:588 JLINK_WriteReg(R3, 0x00000000)  returns 0x00 (0000ms, 0360ms total)
T0770 000:588 JLINK_WriteReg(R4, 0x00000000)  returns 0x00 (0000ms, 0360ms total)
T0770 000:588 JLINK_WriteReg(R5, 0x00000000)  returns 0x00 (0000ms, 0360ms total)
T0770 000:588 JLINK_WriteReg(R6, 0x00000000)  returns 0x00 (0000ms, 0360ms total)
T0770 000:588 JLINK_WriteReg(R7, 0x00000000)  returns 0x00 (0000ms, 0360ms total)
T0770 000:588 JLINK_WriteReg(R8, 0x00000000)  returns 0x00 (0000ms, 0360ms total)
T0770 000:588 JLINK_WriteReg(R9, 0x20000184)  returns 0x00 (0000ms, 0360ms total)
T0770 000:588 JLINK_WriteReg(R10, 0x00000000)  returns 0x00 (0000ms, 0360ms total)
T0770 000:588 JLINK_WriteReg(R11, 0x00000000)  returns 0x00 (0000ms, 0360ms total)
T0770 000:588 JLINK_WriteReg(R12, 0x00000000)  returns 0x00 (0001ms, 0361ms total)
T0770 000:589 JLINK_WriteReg(R13 (SP), 0x20001000)  returns 0x00 (0000ms, 0361ms total)
T0770 000:589 JLINK_WriteReg(R14, 0x20000001)  returns 0x00 (0000ms, 0361ms total)
T0770 000:589 JLINK_WriteReg(R15 (PC), 0x200000C6)  returns 0x00 (0000ms, 0361ms total)
T0770 000:589 JLINK_WriteReg(XPSR, 0x01000000)  returns 0x00 (0000ms, 0361ms total)
T0770 000:589 JLINK_WriteReg(MSP, 0x20001000)  returns 0x00 (0000ms, 0361ms total)
T0770 000:589 JLINK_WriteReg(PSP, 0x20001000)  returns 0x00 (0000ms, 0361ms total)
T0770 000:589 JLINK_WriteReg(CFBP, 0x00000000)  returns 0x00 (0000ms, 0361ms total)
T0770 000:589 JLINK_SetBPEx(Addr = 0x20000000, Type = 0xFFFFFFF2)  returns 0x00000003 (0000ms, 0361ms total)
T0770 000:589 JLINK_Go() -- CPU_ReadMem(4 bytes @ 0xE0001000) (0001ms, 0362ms total)
T0770 000:590 JLINK_IsHalted()  returns FALSE (0001ms, 0363ms total)
T0770 000:674 JLINK_IsHalted()  returns FALSE (0000ms, 0362ms total)
T0770 000:676 JLINK_IsHalted()  returns FALSE (0000ms, 0362ms total)
T0770 000:678 JLINK_IsHalted()  returns FALSE (0000ms, 0362ms total)
T0770 000:680 JLINK_IsHalted()  returns FALSE (0000ms, 0362ms total)
T0770 000:682 JLINK_IsHalted()  returns FALSE (0000ms, 0362ms total)
T0770 000:685 JLINK_IsHalted()  returns FALSE (0000ms, 0362ms total)
T0770 000:687 JLINK_IsHalted()  returns FALSE (0000ms, 0362ms total)
T0770 000:689 JLINK_IsHalted()  returns FALSE (0000ms, 0362ms total)
T0770 000:691 JLINK_IsHalted()  returns FALSE (0000ms, 0362ms total)
T0770 000:693 JLINK_IsHalted()  returns FALSE (0000ms, 0362ms total)
T0770 000:695 JLINK_IsHalted()  returns FALSE (0000ms, 0362ms total)
T0770 000:703 JLINK_IsHalted()  returns FALSE (0000ms, 0362ms total)
T0770 000:705 JLINK_IsHalted()  returns FALSE (0000ms, 0362ms total)
T0770 000:707 JLINK_IsHalted()  returns FALSE (0000ms, 0362ms total)
T0770 000:709 JLINK_IsHalted()  returns FALSE (0000ms, 0362ms total)
T0770 000:711 JLINK_IsHalted()  returns FALSE (0000ms, 0362ms total)
T0770 000:715 JLINK_IsHalted()  returns FALSE (0000ms, 0362ms total)
T0770 000:717 JLINK_IsHalted()  returns FALSE (0000ms, 0362ms total)
T0770 000:719 JLINK_IsHalted()  returns FALSE (0000ms, 0362ms total)
T0770 000:721 JLINK_IsHalted()  returns FALSE (0000ms, 0362ms total)
T0770 000:723 JLINK_IsHalted()  returns FALSE (0000ms, 0362ms total)
T0770 000:725 JLINK_IsHalted()  returns FALSE (0000ms, 0362ms total)
T0770 000:728 JLINK_IsHalted()  returns FALSE (0000ms, 0362ms total)
T0770 000:729 JLINK_IsHalted()  returns FALSE (0000ms, 0362ms total)
T0770 000:731 JLINK_IsHalted()  returns FALSE (0000ms, 0362ms total)
T0770 000:732 JLINK_IsHalted()  returns FALSE (0000ms, 0362ms total)
T0770 000:734 JLINK_IsHalted()  returns FALSE (0000ms, 0362ms total)
T0770 000:736 JLINK_IsHalted()  returns FALSE (0000ms, 0362ms total)
T0770 000:737 JLINK_IsHalted()  returns FALSE (0000ms, 0362ms total)
T0770 000:739 JLINK_IsHalted()  returns FALSE (0000ms, 0362ms total)
T0770 000:742 JLINK_IsHalted()  returns FALSE (0000ms, 0362ms total)
T0770 000:745 JLINK_IsHalted()  returns FALSE (0000ms, 0362ms total)
T0770 000:747 JLINK_IsHalted()  returns FALSE (0000ms, 0362ms total)
T0770 000:749 JLINK_IsHalted()  returns FALSE (0000ms, 0362ms total)
T0770 000:751 JLINK_IsHalted()  returns FALSE (0000ms, 0362ms total)
T0770 000:753 JLINK_IsHalted()  returns FALSE (0000ms, 0362ms total)
T0770 000:755 JLINK_IsHalted()  returns FALSE (0000ms, 0362ms total)
T0770 000:757 JLINK_IsHalted()  returns FALSE (0000ms, 0362ms total)
T0770 000:759 JLINK_IsHalted()  returns FALSE (0000ms, 0362ms total)
T0770 000:761 JLINK_IsHalted()  returns FALSE (0000ms, 0362ms total)
T0770 000:763 JLINK_IsHalted()  returns FALSE (0000ms, 0362ms total)
T0770 000:765 JLINK_IsHalted()  returns FALSE (0000ms, 0362ms total)
T0770 000:767 JLINK_IsHalted()  returns FALSE (0000ms, 0362ms total)
T0770 000:769 JLINK_IsHalted()  returns FALSE (0000ms, 0362ms total)
T0770 000:771 JLINK_IsHalted()  returns FALSE (0000ms, 0362ms total)
T0770 000:773 JLINK_IsHalted()  returns FALSE (0000ms, 0362ms total)
T0770 000:775 JLINK_IsHalted()  returns FALSE (0000ms, 0362ms total)
T0770 000:777 JLINK_IsHalted()  returns FALSE (0000ms, 0362ms total)
T0770 000:779 JLINK_IsHalted()  returns FALSE (0000ms, 0362ms total)
T0770 000:781 JLINK_IsHalted()  returns FALSE (0000ms, 0362ms total)
T0770 000:783 JLINK_IsHalted()  returns FALSE (0000ms, 0362ms total)
T0770 000:785 JLINK_IsHalted()  returns FALSE (0000ms, 0362ms total)
T0770 000:787 JLINK_IsHalted()  returns FALSE (0000ms, 0362ms total)
T0770 000:789 JLINK_IsHalted()  returns FALSE (0000ms, 0362ms total)
T0770 000:791 JLINK_IsHalted()  returns FALSE (0000ms, 0362ms total)
T0770 000:793 JLINK_IsHalted()  returns FALSE (0000ms, 0362ms total)
T0770 000:795 JLINK_IsHalted()  returns FALSE (0000ms, 0362ms total)
T0770 000:797 JLINK_IsHalted()  returns FALSE (0000ms, 0362ms total)
T0770 000:799 JLINK_IsHalted()  returns FALSE (0000ms, 0362ms total)
T0770 000:801 JLINK_IsHalted()  returns FALSE (0000ms, 0362ms total)
T0770 000:803 JLINK_IsHalted()  returns FALSE (0000ms, 0362ms total)
T0770 000:805 JLINK_IsHalted()  returns FALSE (0000ms, 0362ms total)
T0770 000:807 JLINK_IsHalted()  returns FALSE (0000ms, 0362ms total)
T0770 000:809 JLINK_IsHalted()  returns FALSE (0000ms, 0362ms total)
T0770 000:811 JLINK_IsHalted()  returns FALSE (0000ms, 0362ms total)
T0770 000:813 JLINK_IsHalted()  returns FALSE (0000ms, 0362ms total)
T0770 000:815 JLINK_IsHalted()  returns FALSE (0000ms, 0362ms total)
T0770 000:817 JLINK_IsHalted()  returns FALSE (0000ms, 0362ms total)
T0770 000:819 JLINK_IsHalted()  returns FALSE (0000ms, 0362ms total)
T0770 000:821 JLINK_IsHalted()  returns FALSE (0000ms, 0362ms total)
T0770 000:826 JLINK_IsHalted()  returns FALSE (0000ms, 0362ms total)
T0770 000:828 JLINK_IsHalted()  returns FALSE (0000ms, 0362ms total)
T0770 000:830 JLINK_IsHalted()  returns FALSE (0001ms, 0363ms total)
T0770 000:832 JLINK_IsHalted()  returns FALSE (0000ms, 0362ms total)
T0770 000:834 JLINK_IsHalted()  returns FALSE (0000ms, 0362ms total)
T0770 000:843 JLINK_IsHalted()  returns FALSE (0000ms, 0362ms total)
T0770 000:845 JLINK_IsHalted()  returns FALSE (0000ms, 0362ms total)
T0770 000:847 JLINK_IsHalted()  returns FALSE (0000ms, 0362ms total)
T0770 000:849 JLINK_IsHalted()  returns FALSE (0000ms, 0362ms total)
T0770 000:851 JLINK_IsHalted()  returns FALSE (0000ms, 0362ms total)
T0770 000:853 JLINK_IsHalted()  returns FALSE (0000ms, 0362ms total)
T0770 000:855 JLINK_IsHalted()  returns FALSE (0000ms, 0362ms total)
T0770 000:857 JLINK_IsHalted()  returns FALSE (0000ms, 0362ms total)
T0770 000:859 JLINK_IsHalted()  returns FALSE (0000ms, 0362ms total)
T0770 000:861 JLINK_IsHalted()  returns FALSE (0000ms, 0362ms total)
T0770 000:863 JLINK_IsHalted()  returns FALSE (0000ms, 0362ms total)
T0770 000:865 JLINK_IsHalted()  returns FALSE (0000ms, 0362ms total)
T0770 000:867 JLINK_IsHalted()  returns FALSE (0000ms, 0362ms total)
T0770 000:869 JLINK_IsHalted()  returns FALSE (0000ms, 0362ms total)
T0770 000:871 JLINK_IsHalted()  returns FALSE (0000ms, 0362ms total)
T0770 000:873 JLINK_IsHalted()  returns FALSE (0000ms, 0362ms total)
T0770 000:875 JLINK_IsHalted()  returns FALSE (0000ms, 0362ms total)
T0770 000:877 JLINK_IsHalted()  returns FALSE (0000ms, 0362ms total)
T0770 000:879 JLINK_IsHalted()  returns FALSE (0000ms, 0362ms total)
T0770 000:881 JLINK_IsHalted()  returns FALSE (0000ms, 0362ms total)
T0770 000:883 JLINK_IsHalted()  returns FALSE (0000ms, 0362ms total)
T0770 000:885 JLINK_IsHalted()  returns FALSE (0000ms, 0362ms total)
T0770 000:887 JLINK_IsHalted()  returns FALSE (0000ms, 0362ms total)
T0770 000:889 JLINK_IsHalted()  returns FALSE (0000ms, 0362ms total)
T0770 000:891 JLINK_IsHalted()  returns FALSE (0000ms, 0362ms total)
T0770 000:893 JLINK_IsHalted()  returns FALSE (0000ms, 0362ms total)
T0770 000:895 JLINK_IsHalted()  returns FALSE (0000ms, 0362ms total)
T0770 000:897 JLINK_IsHalted()  returns FALSE (0000ms, 0362ms total)
T0770 000:899 JLINK_IsHalted()  returns FALSE (0000ms, 0362ms total)
T0770 000:901 JLINK_IsHalted()  returns FALSE (0000ms, 0362ms total)
T0770 000:903 JLINK_IsHalted()  returns FALSE (0000ms, 0362ms total)
T0770 000:905 JLINK_IsHalted()  returns FALSE (0000ms, 0362ms total)
T0770 000:907 JLINK_IsHalted()  returns FALSE (0000ms, 0362ms total)
T0770 000:909 JLINK_IsHalted()  returns FALSE (0000ms, 0362ms total)
T0770 000:911 JLINK_IsHalted()  returns FALSE (0000ms, 0362ms total)
T0770 000:913 JLINK_IsHalted()  returns FALSE (0000ms, 0362ms total)
T0770 000:919 JLINK_IsHalted()  returns FALSE (0000ms, 0362ms total)
T0770 000:921 JLINK_IsHalted()  returns FALSE (0000ms, 0362ms total)
T0770 000:923 JLINK_IsHalted()  returns FALSE (0000ms, 0362ms total)
T0770 000:925 JLINK_IsHalted()  returns FALSE (0000ms, 0362ms total)
T0770 000:927 JLINK_IsHalted()  returns FALSE (0000ms, 0362ms total)
T0770 000:929 JLINK_IsHalted()  returns FALSE (0001ms, 0363ms total)
T0770 000:932 JLINK_IsHalted() -- CPU_ReadMem(2 bytes @ 0x20000000)  returns TRUE (0002ms, 0364ms total)
T0770 000:934 JLINK_ReadReg(R15 (PC))  returns 0x20000000 (0000ms, 0362ms total)
T0770 000:934 JLINK_ClrBPEx(BPHandle = 0x00000003)  returns 0x00 (0000ms, 0362ms total)
T0770 000:934 JLINK_ReadReg(R0)  returns 0x00000000 (0000ms, 0362ms total)
T0770 000:935 JLINK_WriteReg(R0, 0x00000001)  returns 0x00 (0000ms, 0362ms total)
T0770 000:935 JLINK_WriteReg(R1, 0x00004000)  returns 0x00 (0000ms, 0362ms total)
T0770 000:935 JLINK_WriteReg(R2, 0x000000FF)  returns 0x00 (0000ms, 0362ms total)
T0770 000:935 JLINK_WriteReg(R3, 0x00000000)  returns 0x00 (0000ms, 0362ms total)
T0770 000:935 JLINK_WriteReg(R4, 0x00000000)  returns 0x00 (0000ms, 0362ms total)
T0770 000:935 JLINK_WriteReg(R5, 0x00000000)  returns 0x00 (0000ms, 0362ms total)
T0770 000:935 JLINK_WriteReg(R6, 0x00000000)  returns 0x00 (0000ms, 0362ms total)
T0770 000:935 JLINK_WriteReg(R7, 0x00000000)  returns 0x00 (0000ms, 0362ms total)
T0770 000:935 JLINK_WriteReg(R8, 0x00000000)  returns 0x00 (0000ms, 0362ms total)
T0770 000:935 JLINK_WriteReg(R9, 0x20000184)  returns 0x00 (0000ms, 0362ms total)
T0770 000:935 JLINK_WriteReg(R10, 0x00000000)  returns 0x00 (0000ms, 0362ms total)
T0770 000:935 JLINK_WriteReg(R11, 0x00000000)  returns 0x00 (0000ms, 0362ms total)
T0770 000:935 JLINK_WriteReg(R12, 0x00000000)  returns 0x00 (0000ms, 0362ms total)
T0770 000:935 JLINK_WriteReg(R13 (SP), 0x20001000)  returns 0x00 (0000ms, 0362ms total)
T0770 000:935 JLINK_WriteReg(R14, 0x20000001)  returns 0x00 (0000ms, 0362ms total)
T0770 000:935 JLINK_WriteReg(R15 (PC), 0x2000008C)  returns 0x00 (0000ms, 0362ms total)
T0770 000:936 JLINK_WriteReg(XPSR, 0x01000000)  returns 0x00 (0000ms, 0362ms total)
T0770 000:936 JLINK_WriteReg(MSP, 0x20001000)  returns 0x00 (0000ms, 0362ms total)
T0770 000:936 JLINK_WriteReg(PSP, 0x20001000)  returns 0x00 (0000ms, 0362ms total)
T0770 000:936 JLINK_WriteReg(CFBP, 0x00000000)  returns 0x00 (0000ms, 0362ms total)
T0770 000:936 JLINK_SetBPEx(Addr = 0x20000000, Type = 0xFFFFFFF2)  returns 0x00000004 (0000ms, 0362ms total)
T0770 000:936 JLINK_Go() -- CPU_ReadMem(4 bytes @ 0xE0001000) (0002ms, 0364ms total)
T0770 000:938 JLINK_IsHalted() -- CPU_ReadMem(2 bytes @ 0x20000000)  returns TRUE (0003ms, 0367ms total)
T0770 000:941 JLINK_ReadReg(R15 (PC))  returns 0x20000000 (0000ms, 0364ms total)
T0770 000:941 JLINK_ClrBPEx(BPHandle = 0x00000004)  returns 0x00 (0000ms, 0364ms total)
T0770 000:941 JLINK_ReadReg(R0)  returns 0x00000000 (0000ms, 0364ms total)
T0770 001:042 JLINK_WriteMem(0x20000000, 0x0188 Bytes, ...) - Data: 00 BE 0A E0 0D 78 2D 06 68 40 08 24 40 00 00 D3 ... -- CPU_WriteMem(392 bytes @ 0x20000000)  returns 0x188 (0003ms, 0367ms total)
T0770 001:045 JLINK_WriteReg(R0, 0x08000000)  returns 0x00 (0000ms, 0367ms total)
T0770 001:045 JLINK_WriteReg(R1, 0x00B71B00)  returns 0x00 (0000ms, 0367ms total)
T0770 001:045 JLINK_WriteReg(R2, 0x00000002)  returns 0x00 (0000ms, 0367ms total)
T0770 001:045 JLINK_WriteReg(R3, 0x00000000)  returns 0x00 (0000ms, 0367ms total)
T0770 001:045 JLINK_WriteReg(R4, 0x00000000)  returns 0x00 (0001ms, 0368ms total)
T0770 001:046 JLINK_WriteReg(R5, 0x00000000)  returns 0x00 (0000ms, 0368ms total)
T0770 001:046 JLINK_WriteReg(R6, 0x00000000)  returns 0x00 (0000ms, 0368ms total)
T0770 001:046 JLINK_WriteReg(R7, 0x00000000)  returns 0x00 (0000ms, 0368ms total)
T0770 001:046 JLINK_WriteReg(R8, 0x00000000)  returns 0x00 (0000ms, 0368ms total)
T0770 001:046 JLINK_WriteReg(R9, 0x20000184)  returns 0x00 (0000ms, 0368ms total)
T0770 001:046 JLINK_WriteReg(R10, 0x00000000)  returns 0x00 (0000ms, 0368ms total)
T0770 001:046 JLINK_WriteReg(R11, 0x00000000)  returns 0x00 (0000ms, 0368ms total)
T0770 001:046 JLINK_WriteReg(R12, 0x00000000)  returns 0x00 (0000ms, 0368ms total)
T0770 001:046 JLINK_WriteReg(R13 (SP), 0x20001000)  returns 0x00 (0000ms, 0368ms total)
T0770 001:046 JLINK_WriteReg(R14, 0x20000001)  returns 0x00 (0001ms, 0369ms total)
T0770 001:047 JLINK_WriteReg(R15 (PC), 0x2000005E)  returns 0x00 (0000ms, 0369ms total)
T0770 001:047 JLINK_WriteReg(XPSR, 0x01000000)  returns 0x00 (0000ms, 0369ms total)
T0770 001:047 JLINK_WriteReg(MSP, 0x20001000)  returns 0x00 (0000ms, 0369ms total)
T0770 001:047 JLINK_WriteReg(PSP, 0x20001000)  returns 0x00 (0000ms, 0369ms total)
T0770 001:047 JLINK_WriteReg(CFBP, 0x00000000)  returns 0x00 (0000ms, 0369ms total)
T0770 001:047 JLINK_SetBPEx(Addr = 0x20000000, Type = 0xFFFFFFF2) -- CPU_ReadMem(2 bytes @ 0x20000000)  returns 0x00000005 (0000ms, 0369ms total)
T0770 001:047 JLINK_Go() -- CPU_WriteMem(2 bytes @ 0x20000000) -- CPU_ReadMem(4 bytes @ 0xE0001000) (0002ms, 0371ms total)
T0770 001:049 JLINK_IsHalted() -- CPU_ReadMem(2 bytes @ 0x20000000)  returns TRUE (0003ms, 0374ms total)
T0770 001:052 JLINK_ReadReg(R15 (PC))  returns 0x20000000 (0000ms, 0371ms total)
T0770 001:052 JLINK_ClrBPEx(BPHandle = 0x00000005)  returns 0x00 (0000ms, 0371ms total)
T0770 001:052 JLINK_ReadReg(R0)  returns 0x00000000 (0000ms, 0371ms total)
T0770 001:053 JLINK_WriteMem(0x20000188, 0x0400 Bytes, ...) - Data: C0 38 00 20 39 02 00 08 CB 0F 00 08 C3 0F 00 08 ... -- CPU_WriteMem(1024 bytes @ 0x20000188)  returns 0x400 (0007ms, 0378ms total)
T0770 001:060 JLINK_WriteReg(R0, 0x08000000)  returns 0x00 (0000ms, 0378ms total)
T0770 001:060 JLINK_WriteReg(R1, 0x00000400)  returns 0x00 (0000ms, 0378ms total)
T0770 001:060 JLINK_WriteReg(R2, 0x20000188)  returns 0x00 (0000ms, 0378ms total)
T0770 001:060 JLINK_WriteReg(R3, 0x00000000)  returns 0x00 (0000ms, 0378ms total)
T0770 001:060 JLINK_WriteReg(R4, 0x00000000)  returns 0x00 (0000ms, 0378ms total)
T0770 001:060 JLINK_WriteReg(R5, 0x00000000)  returns 0x00 (0000ms, 0378ms total)
T0770 001:060 JLINK_WriteReg(R6, 0x00000000)  returns 0x00 (0000ms, 0378ms total)
T0770 001:060 JLINK_WriteReg(R7, 0x00000000)  returns 0x00 (0000ms, 0378ms total)
T0770 001:060 JLINK_WriteReg(R8, 0x00000000)  returns 0x00 (0000ms, 0378ms total)
T0770 001:060 JLINK_WriteReg(R9, 0x20000184)  returns 0x00 (0000ms, 0378ms total)
T0770 001:060 JLINK_WriteReg(R10, 0x00000000)  returns 0x00 (0000ms, 0378ms total)
T0770 001:060 JLINK_WriteReg(R11, 0x00000000)  returns 0x00 (0000ms, 0378ms total)
T0770 001:060 JLINK_WriteReg(R12, 0x00000000)  returns 0x00 (0000ms, 0378ms total)
T0770 001:060 JLINK_WriteReg(R13 (SP), 0x20001000)  returns 0x00 (0000ms, 0378ms total)
T0770 001:060 JLINK_WriteReg(R14, 0x20000001)  returns 0x00 (0000ms, 0378ms total)
T0770 001:060 JLINK_WriteReg(R15 (PC), 0x20000112)  returns 0x00 (0001ms, 0379ms total)
T0770 001:061 JLINK_WriteReg(XPSR, 0x01000000)  returns 0x00 (0000ms, 0379ms total)
T0770 001:061 JLINK_WriteReg(MSP, 0x20001000)  returns 0x00 (0000ms, 0379ms total)
T0770 001:061 JLINK_WriteReg(PSP, 0x20001000)  returns 0x00 (0000ms, 0379ms total)
T0770 001:061 JLINK_WriteReg(CFBP, 0x00000000)  returns 0x00 (0000ms, 0379ms total)
T0770 001:061 JLINK_SetBPEx(Addr = 0x20000000, Type = 0xFFFFFFF2)  returns 0x00000006 (0000ms, 0379ms total)
T0770 001:061 JLINK_Go() -- CPU_ReadMem(4 bytes @ 0xE0001000) (0001ms, 0380ms total)
T0770 001:063 JLINK_IsHalted()  returns FALSE (0000ms, 0381ms total)
T0770 001:076 JLINK_IsHalted() -- CPU_ReadMem(2 bytes @ 0x20000000)  returns TRUE (0003ms, 0384ms total)
T0770 001:079 JLINK_ReadReg(R15 (PC))  returns 0x20000000 (0000ms, 0381ms total)
T0770 001:079 JLINK_ClrBPEx(BPHandle = 0x00000006)  returns 0x00 (0000ms, 0381ms total)
T0770 001:079 JLINK_ReadReg(R0)  returns 0x00000000 (0000ms, 0381ms total)
T0770 001:079 JLINK_WriteMem(0x20000188, 0x0400 Bytes, ...) - Data: 48 BF 0C C0 5D F8 04 EB 89 00 28 BF 40 F8 04 2B ... -- CPU_WriteMem(1024 bytes @ 0x20000188)  returns 0x400 (0007ms, 0388ms total)
T0770 001:086 JLINK_WriteReg(R0, 0x08000400)  returns 0x00 (0000ms, 0388ms total)
T0770 001:086 JLINK_WriteReg(R1, 0x00000400)  returns 0x00 (0000ms, 0388ms total)
T0770 001:086 JLINK_WriteReg(R2, 0x20000188)  returns 0x00 (0000ms, 0388ms total)
T0770 001:086 JLINK_WriteReg(R3, 0x00000000)  returns 0x00 (0000ms, 0388ms total)
T0770 001:086 JLINK_WriteReg(R4, 0x00000000)  returns 0x00 (0000ms, 0388ms total)
T0770 001:086 JLINK_WriteReg(R5, 0x00000000)  returns 0x00 (0000ms, 0388ms total)
T0770 001:086 JLINK_WriteReg(R6, 0x00000000)  returns 0x00 (0000ms, 0388ms total)
T0770 001:086 JLINK_WriteReg(R7, 0x00000000)  returns 0x00 (0000ms, 0388ms total)
T0770 001:086 JLINK_WriteReg(R8, 0x00000000)  returns 0x00 (0000ms, 0388ms total)
T0770 001:086 JLINK_WriteReg(R9, 0x20000184)  returns 0x00 (0000ms, 0388ms total)
T0770 001:086 JLINK_WriteReg(R10, 0x00000000)  returns 0x00 (0000ms, 0388ms total)
T0770 001:086 JLINK_WriteReg(R11, 0x00000000)  returns 0x00 (0000ms, 0388ms total)
T0770 001:086 JLINK_WriteReg(R12, 0x00000000)  returns 0x00 (0000ms, 0388ms total)
T0770 001:086 JLINK_WriteReg(R13 (SP), 0x20001000)  returns 0x00 (0000ms, 0388ms total)
T0770 001:086 JLINK_WriteReg(R14, 0x20000001)  returns 0x00 (0000ms, 0388ms total)
T0770 001:086 JLINK_WriteReg(R15 (PC), 0x20000112)  returns 0x00 (0000ms, 0388ms total)
T0770 001:086 JLINK_WriteReg(XPSR, 0x01000000)  returns 0x00 (0000ms, 0388ms total)
T0770 001:086 JLINK_WriteReg(MSP, 0x20001000)  returns 0x00 (0000ms, 0388ms total)
T0770 001:086 JLINK_WriteReg(PSP, 0x20001000)  returns 0x00 (0000ms, 0388ms total)
T0770 001:086 JLINK_WriteReg(CFBP, 0x00000000)  returns 0x00 (0000ms, 0388ms total)
T0770 001:086 JLINK_SetBPEx(Addr = 0x20000000, Type = 0xFFFFFFF2)  returns 0x00000007 (0000ms, 0388ms total)
T0770 001:086 JLINK_Go() -- CPU_ReadMem(4 bytes @ 0xE0001000) (0002ms, 0390ms total)
T0770 001:088 JLINK_IsHalted()  returns FALSE (0000ms, 0390ms total)
T0770 001:090 JLINK_IsHalted()  returns FALSE (0000ms, 0390ms total)
T0770 001:092 JLINK_IsHalted()  returns FALSE (0000ms, 0390ms total)
T0770 001:094 JLINK_IsHalted() -- CPU_ReadMem(2 bytes @ 0x20000000)  returns TRUE (0002ms, 0392ms total)
T0770 001:096 JLINK_ReadReg(R15 (PC))  returns 0x20000000 (0000ms, 0390ms total)
T0770 001:097 JLINK_ClrBPEx(BPHandle = 0x00000007)  returns 0x00 (0000ms, 0390ms total)
T0770 001:097 JLINK_ReadReg(R0)  returns 0x00000000 (0000ms, 0390ms total)
T0770 001:098 JLINK_WriteMem(0x20000188, 0x0400 Bytes, ...) - Data: 00 28 F8 D1 BD E8 70 40 0A 20 00 F0 19 B8 00 00 ... -- CPU_WriteMem(1024 bytes @ 0x20000188)  returns 0x400 (0006ms, 0396ms total)
T0770 001:104 JLINK_WriteReg(R0, 0x08000800)  returns 0x00 (0000ms, 0396ms total)
T0770 001:104 JLINK_WriteReg(R1, 0x00000400)  returns 0x00 (0000ms, 0396ms total)
T0770 001:104 JLINK_WriteReg(R2, 0x20000188)  returns 0x00 (0000ms, 0396ms total)
T0770 001:104 JLINK_WriteReg(R3, 0x00000000)  returns 0x00 (0000ms, 0396ms total)
T0770 001:104 JLINK_WriteReg(R4, 0x00000000)  returns 0x00 (0000ms, 0396ms total)
T0770 001:104 JLINK_WriteReg(R5, 0x00000000)  returns 0x00 (0000ms, 0396ms total)
T0770 001:104 JLINK_WriteReg(R6, 0x00000000)  returns 0x00 (0000ms, 0396ms total)
T0770 001:104 JLINK_WriteReg(R7, 0x00000000)  returns 0x00 (0000ms, 0396ms total)
T0770 001:104 JLINK_WriteReg(R8, 0x00000000)  returns 0x00 (0000ms, 0396ms total)
T0770 001:104 JLINK_WriteReg(R9, 0x20000184)  returns 0x00 (0000ms, 0396ms total)
T0770 001:104 JLINK_WriteReg(R10, 0x00000000)  returns 0x00 (0000ms, 0396ms total)
T0770 001:104 JLINK_WriteReg(R11, 0x00000000)  returns 0x00 (0000ms, 0396ms total)
T0770 001:104 JLINK_WriteReg(R12, 0x00000000)  returns 0x00 (0000ms, 0396ms total)
T0770 001:104 JLINK_WriteReg(R13 (SP), 0x20001000)  returns 0x00 (0000ms, 0396ms total)
T0770 001:104 JLINK_WriteReg(R14, 0x20000001)  returns 0x00 (0000ms, 0396ms total)
T0770 001:104 JLINK_WriteReg(R15 (PC), 0x20000112)  returns 0x00 (0000ms, 0396ms total)
T0770 001:104 JLINK_WriteReg(XPSR, 0x01000000)  returns 0x00 (0001ms, 0397ms total)
T0770 001:105 JLINK_WriteReg(MSP, 0x20001000)  returns 0x00 (0000ms, 0397ms total)
T0770 001:105 JLINK_WriteReg(PSP, 0x20001000)  returns 0x00 (0000ms, 0397ms total)
T0770 001:105 JLINK_WriteReg(CFBP, 0x00000000)  returns 0x00 (0000ms, 0397ms total)
T0770 001:105 JLINK_SetBPEx(Addr = 0x20000000, Type = 0xFFFFFFF2)  returns 0x00000008 (0000ms, 0397ms total)
T0770 001:105 JLINK_Go() -- CPU_ReadMem(4 bytes @ 0xE0001000) (0001ms, 0398ms total)
T0770 001:106 JLINK_IsHalted()  returns FALSE (0001ms, 0399ms total)
T0770 001:109 JLINK_IsHalted()  returns FALSE (0000ms, 0398ms total)
T0770 001:111 JLINK_IsHalted() -- CPU_ReadMem(2 bytes @ 0x20000000)  returns TRUE (0002ms, 0400ms total)
T0770 001:113 JLINK_ReadReg(R15 (PC))  returns 0x20000000 (0000ms, 0398ms total)
T0770 001:113 JLINK_ClrBPEx(BPHandle = 0x00000008)  returns 0x00 (0000ms, 0398ms total)
T0770 001:113 JLINK_ReadReg(R0)  returns 0x00000000 (0000ms, 0398ms total)
T0770 001:114 JLINK_WriteMem(0x20000188, 0x0400 Bytes, ...) - Data: 04 EB 00 14 23 60 10 E0 0B 7A 4C 68 43 EA C4 03 ... -- CPU_WriteMem(1024 bytes @ 0x20000188)  returns 0x400 (0006ms, 0404ms total)
T0770 001:120 JLINK_WriteReg(R0, 0x08000C00)  returns 0x00 (0000ms, 0404ms total)
T0770 001:120 JLINK_WriteReg(R1, 0x00000400)  returns 0x00 (0000ms, 0404ms total)
T0770 001:120 JLINK_WriteReg(R2, 0x20000188)  returns 0x00 (0000ms, 0404ms total)
T0770 001:120 JLINK_WriteReg(R3, 0x00000000)  returns 0x00 (0000ms, 0404ms total)
T0770 001:120 JLINK_WriteReg(R4, 0x00000000)  returns 0x00 (0000ms, 0404ms total)
T0770 001:120 JLINK_WriteReg(R5, 0x00000000)  returns 0x00 (0000ms, 0404ms total)
T0770 001:120 JLINK_WriteReg(R6, 0x00000000)  returns 0x00 (0001ms, 0405ms total)
T0770 001:121 JLINK_WriteReg(R7, 0x00000000)  returns 0x00 (0000ms, 0405ms total)
T0770 001:121 JLINK_WriteReg(R8, 0x00000000)  returns 0x00 (0000ms, 0405ms total)
T0770 001:121 JLINK_WriteReg(R9, 0x20000184)  returns 0x00 (0000ms, 0405ms total)
T0770 001:121 JLINK_WriteReg(R10, 0x00000000)  returns 0x00 (0000ms, 0405ms total)
T0770 001:121 JLINK_WriteReg(R11, 0x00000000)  returns 0x00 (0000ms, 0405ms total)
T0770 001:121 JLINK_WriteReg(R12, 0x00000000)  returns 0x00 (0000ms, 0405ms total)
T0770 001:121 JLINK_WriteReg(R13 (SP), 0x20001000)  returns 0x00 (0000ms, 0405ms total)
T0770 001:121 JLINK_WriteReg(R14, 0x20000001)  returns 0x00 (0000ms, 0405ms total)
T0770 001:121 JLINK_WriteReg(R15 (PC), 0x20000112)  returns 0x00 (0000ms, 0405ms total)
T0770 001:121 JLINK_WriteReg(XPSR, 0x01000000)  returns 0x00 (0000ms, 0405ms total)
T0770 001:121 JLINK_WriteReg(MSP, 0x20001000)  returns 0x00 (0000ms, 0405ms total)
T0770 001:121 JLINK_WriteReg(PSP, 0x20001000)  returns 0x00 (0000ms, 0405ms total)
T0770 001:121 JLINK_WriteReg(CFBP, 0x00000000)  returns 0x00 (0000ms, 0405ms total)
T0770 001:121 JLINK_SetBPEx(Addr = 0x20000000, Type = 0xFFFFFFF2)  returns 0x00000009 (0000ms, 0405ms total)
T0770 001:121 JLINK_Go() -- CPU_ReadMem(4 bytes @ 0xE0001000) (0001ms, 0406ms total)
T0770 001:123 JLINK_IsHalted()  returns FALSE (0000ms, 0406ms total)
T0770 001:125 JLINK_IsHalted()  returns FALSE (0000ms, 0406ms total)
T0770 001:127 JLINK_IsHalted() -- CPU_ReadMem(2 bytes @ 0x20000000)  returns TRUE (0003ms, 0409ms total)
T0770 001:130 JLINK_ReadReg(R15 (PC))  returns 0x20000000 (0000ms, 0406ms total)
T0770 001:130 JLINK_ClrBPEx(BPHandle = 0x00000009)  returns 0x00 (0000ms, 0406ms total)
T0770 001:130 JLINK_ReadReg(R0)  returns 0x00000000 (0000ms, 0406ms total)
T0770 001:130 JLINK_WriteMem(0x20000188, 0x0400 Bytes, ...) - Data: 12 68 82 43 01 4B 1A 60 70 47 00 00 40 38 02 40 ... -- CPU_WriteMem(1024 bytes @ 0x20000188)  returns 0x400 (0007ms, 0413ms total)
T0770 001:137 JLINK_WriteReg(R0, 0x08001000)  returns 0x00 (0000ms, 0413ms total)
T0770 001:137 JLINK_WriteReg(R1, 0x00000400)  returns 0x00 (0000ms, 0413ms total)
T0770 001:137 JLINK_WriteReg(R2, 0x20000188)  returns 0x00 (0000ms, 0413ms total)
T0770 001:137 JLINK_WriteReg(R3, 0x00000000)  returns 0x00 (0000ms, 0413ms total)
T0770 001:137 JLINK_WriteReg(R4, 0x00000000)  returns 0x00 (0000ms, 0413ms total)
T0770 001:137 JLINK_WriteReg(R5, 0x00000000)  returns 0x00 (0000ms, 0413ms total)
T0770 001:137 JLINK_WriteReg(R6, 0x00000000)  returns 0x00 (0000ms, 0413ms total)
T0770 001:137 JLINK_WriteReg(R7, 0x00000000)  returns 0x00 (0000ms, 0413ms total)
T0770 001:137 JLINK_WriteReg(R8, 0x00000000)  returns 0x00 (0000ms, 0413ms total)
T0770 001:137 JLINK_WriteReg(R9, 0x20000184)  returns 0x00 (0000ms, 0413ms total)
T0770 001:137 JLINK_WriteReg(R10, 0x00000000)  returns 0x00 (0000ms, 0413ms total)
T0770 001:137 JLINK_WriteReg(R11, 0x00000000)  returns 0x00 (0000ms, 0413ms total)
T0770 001:137 JLINK_WriteReg(R12, 0x00000000)  returns 0x00 (0000ms, 0413ms total)
T0770 001:137 JLINK_WriteReg(R13 (SP), 0x20001000)  returns 0x00 (0000ms, 0413ms total)
T0770 001:137 JLINK_WriteReg(R14, 0x20000001)  returns 0x00 (0000ms, 0413ms total)
T0770 001:137 JLINK_WriteReg(R15 (PC), 0x20000112)  returns 0x00 (0000ms, 0413ms total)
T0770 001:137 JLINK_WriteReg(XPSR, 0x01000000)  returns 0x00 (0000ms, 0413ms total)
T0770 001:137 JLINK_WriteReg(MSP, 0x20001000)  returns 0x00 (0000ms, 0413ms total)
T0770 001:137 JLINK_WriteReg(PSP, 0x20001000)  returns 0x00 (0000ms, 0413ms total)
T0770 001:137 JLINK_WriteReg(CFBP, 0x00000000)  returns 0x00 (0000ms, 0413ms total)
T0770 001:137 JLINK_SetBPEx(Addr = 0x20000000, Type = 0xFFFFFFF2)  returns 0x0000000A (0000ms, 0413ms total)
T0770 001:137 JLINK_Go() -- CPU_ReadMem(4 bytes @ 0xE0001000) (0002ms, 0415ms total)
T0770 001:139 JLINK_IsHalted()  returns FALSE (0001ms, 0416ms total)
T0770 001:141 JLINK_IsHalted()  returns FALSE (0000ms, 0415ms total)
T0770 001:143 JLINK_IsHalted()  returns FALSE (0000ms, 0415ms total)
T0770 001:145 JLINK_IsHalted() -- CPU_ReadMem(2 bytes @ 0x20000000)  returns TRUE (0002ms, 0417ms total)
T0770 001:147 JLINK_ReadReg(R15 (PC))  returns 0x20000000 (0000ms, 0415ms total)
T0770 001:147 JLINK_ClrBPEx(BPHandle = 0x0000000A)  returns 0x00 (0000ms, 0415ms total)
T0770 001:147 JLINK_ReadReg(R0)  returns 0x00000000 (0000ms, 0415ms total)
T0770 001:148 JLINK_WriteMem(0x20000188, 0x0400 Bytes, ...) - Data: 71 89 08 43 04 43 AC 81 AC 8A 24 F4 40 74 B0 89 ... -- CPU_WriteMem(1024 bytes @ 0x20000188)  returns 0x400 (0006ms, 0421ms total)
T0770 001:154 JLINK_WriteReg(R0, 0x08001400)  returns 0x00 (0000ms, 0421ms total)
T0770 001:155 JLINK_WriteReg(R1, 0x00000400)  returns 0x00 (0000ms, 0422ms total)
T0770 001:155 JLINK_WriteReg(R2, 0x20000188)  returns 0x00 (0000ms, 0422ms total)
T0770 001:155 JLINK_WriteReg(R3, 0x00000000)  returns 0x00 (0000ms, 0422ms total)
T0770 001:155 JLINK_WriteReg(R4, 0x00000000)  returns 0x00 (0000ms, 0422ms total)
T0770 001:155 JLINK_WriteReg(R5, 0x00000000)  returns 0x00 (0000ms, 0422ms total)
T0770 001:155 JLINK_WriteReg(R6, 0x00000000)  returns 0x00 (0000ms, 0422ms total)
T0770 001:155 JLINK_WriteReg(R7, 0x00000000)  returns 0x00 (0000ms, 0422ms total)
T0770 001:155 JLINK_WriteReg(R8, 0x00000000)  returns 0x00 (0000ms, 0422ms total)
T0770 001:155 JLINK_WriteReg(R9, 0x20000184)  returns 0x00 (0000ms, 0422ms total)
T0770 001:155 JLINK_WriteReg(R10, 0x00000000)  returns 0x00 (0000ms, 0422ms total)
T0770 001:155 JLINK_WriteReg(R11, 0x00000000)  returns 0x00 (0000ms, 0422ms total)
T0770 001:155 JLINK_WriteReg(R12, 0x00000000)  returns 0x00 (0000ms, 0422ms total)
T0770 001:155 JLINK_WriteReg(R13 (SP), 0x20001000)  returns 0x00 (0000ms, 0422ms total)
T0770 001:155 JLINK_WriteReg(R14, 0x20000001)  returns 0x00 (0000ms, 0422ms total)
T0770 001:155 JLINK_WriteReg(R15 (PC), 0x20000112)  returns 0x00 (0000ms, 0422ms total)
T0770 001:155 JLINK_WriteReg(XPSR, 0x01000000)  returns 0x00 (0000ms, 0422ms total)
T0770 001:155 JLINK_WriteReg(MSP, 0x20001000)  returns 0x00 (0000ms, 0422ms total)
T0770 001:155 JLINK_WriteReg(PSP, 0x20001000)  returns 0x00 (0000ms, 0422ms total)
T0770 001:155 JLINK_WriteReg(CFBP, 0x00000000)  returns 0x00 (0000ms, 0422ms total)
T0770 001:155 JLINK_SetBPEx(Addr = 0x20000000, Type = 0xFFFFFFF2)  returns 0x0000000B (0000ms, 0422ms total)
T0770 001:155 JLINK_Go() -- CPU_ReadMem(4 bytes @ 0xE0001000) (0002ms, 0424ms total)
T0770 001:157 JLINK_IsHalted()  returns FALSE (0000ms, 0424ms total)
T0770 001:161 JLINK_IsHalted()  returns FALSE (0000ms, 0424ms total)
T0770 001:165 JLINK_IsHalted() -- CPU_ReadMem(2 bytes @ 0x20000000)  returns TRUE (0002ms, 0426ms total)
T0770 001:167 JLINK_ReadReg(R15 (PC))  returns 0x20000000 (0000ms, 0424ms total)
T0770 001:167 JLINK_ClrBPEx(BPHandle = 0x0000000B)  returns 0x00 (0000ms, 0424ms total)
T0770 001:167 JLINK_ReadReg(R0)  returns 0x00000000 (0000ms, 0424ms total)
T0770 001:168 JLINK_WriteMem(0x20000188, 0x0400 Bytes, ...) - Data: 00 20 00 90 69 46 19 48 00 F0 03 FF 00 28 13 DD ... -- CPU_WriteMem(1024 bytes @ 0x20000188)  returns 0x400 (0006ms, 0430ms total)
T0770 001:174 JLINK_WriteReg(R0, 0x08001800)  returns 0x00 (0000ms, 0430ms total)
T0770 001:174 JLINK_WriteReg(R1, 0x00000400)  returns 0x00 (0000ms, 0430ms total)
T0770 001:174 JLINK_WriteReg(R2, 0x20000188)  returns 0x00 (0000ms, 0430ms total)
T0770 001:174 JLINK_WriteReg(R3, 0x00000000)  returns 0x00 (0000ms, 0430ms total)
T0770 001:174 JLINK_WriteReg(R4, 0x00000000)  returns 0x00 (0000ms, 0430ms total)
T0770 001:174 JLINK_WriteReg(R5, 0x00000000)  returns 0x00 (0000ms, 0430ms total)
T0770 001:174 JLINK_WriteReg(R6, 0x00000000)  returns 0x00 (0001ms, 0431ms total)
T0770 001:175 JLINK_WriteReg(R7, 0x00000000)  returns 0x00 (0000ms, 0431ms total)
T0770 001:175 JLINK_WriteReg(R8, 0x00000000)  returns 0x00 (0000ms, 0431ms total)
T0770 001:175 JLINK_WriteReg(R9, 0x20000184)  returns 0x00 (0000ms, 0431ms total)
T0770 001:175 JLINK_WriteReg(R10, 0x00000000)  returns 0x00 (0000ms, 0431ms total)
T0770 001:175 JLINK_WriteReg(R11, 0x00000000)  returns 0x00 (0000ms, 0431ms total)
T0770 001:175 JLINK_WriteReg(R12, 0x00000000)  returns 0x00 (0000ms, 0431ms total)
T0770 001:175 JLINK_WriteReg(R13 (SP), 0x20001000)  returns 0x00 (0000ms, 0431ms total)
T0770 001:175 JLINK_WriteReg(R14, 0x20000001)  returns 0x00 (0000ms, 0431ms total)
T0770 001:175 JLINK_WriteReg(R15 (PC), 0x20000112)  returns 0x00 (0000ms, 0431ms total)
T0770 001:175 JLINK_WriteReg(XPSR, 0x01000000)  returns 0x00 (0000ms, 0431ms total)
T0770 001:175 JLINK_WriteReg(MSP, 0x20001000)  returns 0x00 (0000ms, 0431ms total)
T0770 001:175 JLINK_WriteReg(PSP, 0x20001000)  returns 0x00 (0000ms, 0431ms total)
T0770 001:175 JLINK_WriteReg(CFBP, 0x00000000)  returns 0x00 (0000ms, 0431ms total)
T0770 001:175 JLINK_SetBPEx(Addr = 0x20000000, Type = 0xFFFFFFF2)  returns 0x0000000C (0000ms, 0431ms total)
T0770 001:175 JLINK_Go() -- CPU_ReadMem(4 bytes @ 0xE0001000) (0002ms, 0433ms total)
T0770 001:177 JLINK_IsHalted()  returns FALSE (0000ms, 0433ms total)
T0770 001:179 JLINK_IsHalted()  returns FALSE (0000ms, 0433ms total)
T0770 001:181 JLINK_IsHalted()  returns FALSE (0000ms, 0433ms total)
T0770 001:183 JLINK_IsHalted() -- CPU_ReadMem(2 bytes @ 0x20000000)  returns TRUE (0002ms, 0435ms total)
T0770 001:185 JLINK_ReadReg(R15 (PC))  returns 0x20000000 (0000ms, 0433ms total)
T0770 001:185 JLINK_ClrBPEx(BPHandle = 0x0000000C)  returns 0x00 (0000ms, 0433ms total)
T0770 001:185 JLINK_ReadReg(R0)  returns 0x00000000 (0000ms, 0433ms total)
T0770 001:186 JLINK_WriteMem(0x20000188, 0x0400 Bytes, ...) - Data: 7C 00 00 20 70 00 00 20 10 B5 4F F4 80 61 23 48 ... -- CPU_WriteMem(1024 bytes @ 0x20000188)  returns 0x400 (0006ms, 0439ms total)
T0770 001:192 JLINK_WriteReg(R0, 0x08001C00)  returns 0x00 (0000ms, 0439ms total)
T0770 001:192 JLINK_WriteReg(R1, 0x00000400)  returns 0x00 (0000ms, 0439ms total)
T0770 001:192 JLINK_WriteReg(R2, 0x20000188)  returns 0x00 (0000ms, 0439ms total)
T0770 001:192 JLINK_WriteReg(R3, 0x00000000)  returns 0x00 (0000ms, 0439ms total)
T0770 001:192 JLINK_WriteReg(R4, 0x00000000)  returns 0x00 (0000ms, 0439ms total)
T0770 001:192 JLINK_WriteReg(R5, 0x00000000)  returns 0x00 (0000ms, 0439ms total)
T0770 001:192 JLINK_WriteReg(R6, 0x00000000)  returns 0x00 (0000ms, 0439ms total)
T0770 001:192 JLINK_WriteReg(R7, 0x00000000)  returns 0x00 (0000ms, 0439ms total)
T0770 001:192 JLINK_WriteReg(R8, 0x00000000)  returns 0x00 (0000ms, 0439ms total)
T0770 001:192 JLINK_WriteReg(R9, 0x20000184)  returns 0x00 (0000ms, 0439ms total)
T0770 001:192 JLINK_WriteReg(R10, 0x00000000)  returns 0x00 (0000ms, 0439ms total)
T0770 001:192 JLINK_WriteReg(R11, 0x00000000)  returns 0x00 (0000ms, 0439ms total)
T0770 001:193 JLINK_WriteReg(R12, 0x00000000)  returns 0x00 (0000ms, 0439ms total)
T0770 001:193 JLINK_WriteReg(R13 (SP), 0x20001000)  returns 0x00 (0000ms, 0439ms total)
T0770 001:193 JLINK_WriteReg(R14, 0x20000001)  returns 0x00 (0000ms, 0439ms total)
T0770 001:193 JLINK_WriteReg(R15 (PC), 0x20000112)  returns 0x00 (0000ms, 0439ms total)
T0770 001:193 JLINK_WriteReg(XPSR, 0x01000000)  returns 0x00 (0000ms, 0439ms total)
T0770 001:193 JLINK_WriteReg(MSP, 0x20001000)  returns 0x00 (0000ms, 0439ms total)
T0770 001:193 JLINK_WriteReg(PSP, 0x20001000)  returns 0x00 (0000ms, 0439ms total)
T0770 001:193 JLINK_WriteReg(CFBP, 0x00000000)  returns 0x00 (0000ms, 0439ms total)
T0770 001:193 JLINK_SetBPEx(Addr = 0x20000000, Type = 0xFFFFFFF2)  returns 0x0000000D (0000ms, 0439ms total)
T0770 001:193 JLINK_Go() -- CPU_ReadMem(4 bytes @ 0xE0001000) (0001ms, 0440ms total)
T0770 001:194 JLINK_IsHalted()  returns FALSE (0001ms, 0441ms total)
T0770 001:197 JLINK_IsHalted()  returns FALSE (0000ms, 0440ms total)
T0770 001:199 JLINK_IsHalted() -- CPU_ReadMem(2 bytes @ 0x20000000)  returns TRUE (0002ms, 0442ms total)
T0770 001:201 JLINK_ReadReg(R15 (PC))  returns 0x20000000 (0001ms, 0441ms total)
T0770 001:202 JLINK_ClrBPEx(BPHandle = 0x0000000D)  returns 0x00 (0000ms, 0441ms total)
T0770 001:202 JLINK_ReadReg(R0)  returns 0x00000000 (0000ms, 0441ms total)
T0770 001:203 JLINK_WriteMem(0x20000188, 0x0400 Bytes, ...) - Data: 0B 00 01 20 8D F8 0C 00 00 20 AD F8 04 00 AD F8 ... -- CPU_WriteMem(1024 bytes @ 0x20000188)  returns 0x400 (0006ms, 0447ms total)
T0770 001:210 JLINK_WriteReg(R0, 0x08002000)  returns 0x00 (0000ms, 0447ms total)
T0770 001:210 JLINK_WriteReg(R1, 0x00000400)  returns 0x00 (0000ms, 0447ms total)
T0770 001:210 JLINK_WriteReg(R2, 0x20000188)  returns 0x00 (0000ms, 0447ms total)
T0770 001:210 JLINK_WriteReg(R3, 0x00000000)  returns 0x00 (0000ms, 0447ms total)
